<Qucs Dataset 0.0.18>
<indep time 100>
  +0.00000000000e+00
  +6.06060606061e-01
  +1.21212121212e+00
  +1.81818181818e+00
  +2.42424242424e+00
  +3.03030303030e+00
  +3.63636363636e+00
  +4.24242424242e+00
  +4.84848484848e+00
  +5.45454545455e+00
  +6.06060606061e+00
  +6.66666666667e+00
  +7.27272727273e+00
  +7.87878787879e+00
  +8.48484848485e+00
  +9.09090909091e+00
  +9.69696969697e+00
  +1.03030303030e+01
  +1.09090909091e+01
  +1.15151515152e+01
  +1.21212121212e+01
  +1.27272727273e+01
  +1.33333333333e+01
  +1.39393939394e+01
  +1.45454545455e+01
  +1.51515151515e+01
  +1.57575757576e+01
  +1.63636363636e+01
  +1.69696969697e+01
  +1.75757575758e+01
  +1.81818181818e+01
  +1.87878787879e+01
  +1.93939393939e+01
  +2.00000000000e+01
  +2.06060606061e+01
  +2.12121212121e+01
  +2.18181818182e+01
  +2.24242424242e+01
  +2.30303030303e+01
  +2.36363636364e+01
  +2.42424242424e+01
  +2.48484848485e+01
  +2.54545454545e+01
  +2.60606060606e+01
  +2.66666666667e+01
  +2.72727272727e+01
  +2.78787878788e+01
  +2.84848484848e+01
  +2.90909090909e+01
  +2.96969696970e+01
  +3.03030303030e+01
  +3.09090909091e+01
  +3.15151515152e+01
  +3.21212121212e+01
  +3.27272727273e+01
  +3.33333333333e+01
  +3.39393939394e+01
  +3.45454545455e+01
  +3.51515151515e+01
  +3.57575757576e+01
  +3.63636363636e+01
  +3.69696969697e+01
  +3.75757575758e+01
  +3.81818181818e+01
  +3.87878787879e+01
  +3.93939393939e+01
  +4.00000000000e+01
  +4.06060606061e+01
  +4.12121212121e+01
  +4.18181818182e+01
  +4.24242424242e+01
  +4.30303030303e+01
  +4.36363636364e+01
  +4.42424242424e+01
  +4.48484848485e+01
  +4.54545454545e+01
  +4.60606060606e+01
  +4.66666666667e+01
  +4.72727272727e+01
  +4.78787878788e+01
  +4.84848484848e+01
  +4.90909090909e+01
  +4.96969696970e+01
  +5.03030303030e+01
  +5.09090909091e+01
  +5.15151515152e+01
  +5.21212121212e+01
  +5.27272727273e+01
  +5.33333333333e+01
  +5.39393939394e+01
  +5.45454545455e+01
  +5.51515151515e+01
  +5.57575757576e+01
  +5.63636363636e+01
  +5.69696969697e+01
  +5.75757575758e+01
  +5.81818181818e+01
  +5.87878787879e+01
  +5.93939393939e+01
  +6.00000000000e+01
</indep>
<dep Pr1.Vt time>
  +9.99999999990e-11
  +5.88069044392e-01
  +1.14156589521e+00
  +1.66251270233e+00
  +2.15282366878e+00
  +2.61430771315e+00
  +3.04866246143e+00
  +3.45745088979e+00
  +3.84220995951e+00
  +4.20435141344e+00
  +4.54518213838e+00
  +4.86597400483e+00
  +5.16790759239e+00
  +5.45207568618e+00
  +5.71953574140e+00
  +5.97127111073e+00
  +6.20820030293e+00
  +6.43119427255e+00
  +6.64107542399e+00
  +6.83861477197e+00
  +7.02453677245e+00
  +7.19952464509e+00
  +7.36422142917e+00
  +7.51923234666e+00
  +7.66512702623e+00
  +7.80244159654e+00
  +7.93168065634e+00
  +8.05331912881e+00
  +8.16780400673e+00
  +8.27555599511e+00
  +8.37697105717e+00
  +8.47242186944e+00
  +8.56225919119e+00
  +8.64681315348e+00
  +8.72639447224e+00
  +8.80129559009e+00
  +8.87179175105e+00
  +8.93814201193e+00
  +9.00059019433e+00
  +9.05936578066e+00
  +9.11468475736e+00
  +9.16675040868e+00
  +9.21575406365e+00
  +9.26187579916e+00
  +9.30528510177e+00
  +9.34614149045e+00
  +9.38459510283e+00
  +9.42078724689e+00
  +9.45485092024e+00
  +9.48691129889e+00
  +9.51708619719e+00
  +9.54548650079e+00
  +9.57221657414e+00
  +9.59737464397e+00
  +9.62105316026e+00
  +9.64333913601e+00
  +9.66431446693e+00
  +9.68405623244e+00
  +9.70263697887e+00
  +9.72012498611e+00
  +9.73658451847e+00
  +9.75207606087e+00
  +9.76665654107e+00
  +9.78037953892e+00
  +9.79329548321e+00
  +9.80545183699e+00
  +9.81689327201e+00
  +9.82766183285e+00
  +9.83779709144e+00
  +9.84733629248e+00
  +9.85631449028e+00
  +9.86476467761e+00
  +9.87271790693e+00
  +9.88020340448e+00
  +9.88724867770e+00
  +9.89387961632e+00
  +9.90012058747e+00
  +9.90599452527e+00
  +9.91152301505e+00
  +9.91672637271e+00
  +9.92162371936e+00
  +9.92623305161e+00
  +9.93057130767e+00
  +9.93465442961e+00
  +9.93849742193e+00
  +9.94211440674e+00
  +9.94551867561e+00
  +9.94872273841e+00
  +9.95173836933e+00
  +9.95457665011e+00
  +9.95724801075e+00
  +9.95976226789e+00
  +9.96212866082e+00
  +9.96435588548e+00
  +9.96645212640e+00
  +9.96842508677e+00
  +9.97028201676e+00
  +9.97202974014e+00
  +9.97367467940e+00
  +9.97522287929e+00
</dep>
<dep V1.It time>
  -9.99999999990e-05
  -9.41193095561e-05
  -8.85843410479e-05
  -8.33748729767e-05
  -7.84717633122e-05
  -7.38569228685e-05
  -6.95133753857e-05
  -6.54254911021e-05
  -6.15779004049e-05
  -5.79564858656e-05
  -5.45481786162e-05
  -5.13402599517e-05
  -4.83209240761e-05
  -4.54792431382e-05
  -4.28046425860e-05
  -4.02872888927e-05
  -3.79179969707e-05
  -3.56880572745e-05
  -3.35892457601e-05
  -3.16138522803e-05
  -2.97546322755e-05
  -2.80047535491e-05
  -2.63577857083e-05
  -2.48076765334e-05
  -2.33487297377e-05
  -2.19755840346e-05
  -2.06831934366e-05
  -1.94668087119e-05
  -1.83219599327e-05
  -1.72444400489e-05
  -1.62302894283e-05
  -1.52757813056e-05
  -1.43774080881e-05
  -1.35318684652e-05
  -1.27360552776e-05
  -1.19870440991e-05
  -1.12820824895e-05
  -1.06185798807e-05
  -9.99409805668e-06
  -9.40634219344e-06
  -8.85315242639e-06
  -8.33249591318e-06
  -7.84245936355e-06
  -7.38124200836e-06
  -6.94714898227e-06
  -6.53858509547e-06
  -6.15404897171e-06
  -5.79212753114e-06
  -5.45149079757e-06
  -5.13088701106e-06
  -4.82913802808e-06
  -4.54513499206e-06
  -4.27783425860e-06
  -4.02625356035e-06
  -3.78946839738e-06
  -3.56660863990e-06
  -3.35685533069e-06
  -3.15943767564e-06
  -2.97363021129e-06
  -2.79875013888e-06
  -2.63415481526e-06
  -2.47923939132e-06
  -2.33343458929e-06
  -2.19620461080e-06
  -2.06704516794e-06
  -1.94548163012e-06
  -1.83106727993e-06
  -1.72338167151e-06
  -1.62202908559e-06
  -1.52663707522e-06
  -1.43685509721e-06
  -1.35235322388e-06
  -1.27282093072e-06
  -1.19796595525e-06
  -1.12751322303e-06
  -1.06120383683e-06
  -9.98794125256e-07
  -9.40054747279e-07
  -8.84769849497e-07
  -8.32736272910e-07
  -7.83762806354e-07
  -7.37669483854e-07
  -6.94286923285e-07
  -6.53455703937e-07
  -6.15025780679e-07
  -5.78855932577e-07
  -5.44813243940e-07
  -5.12772615894e-07
  -4.82616306661e-07
  -4.54233498896e-07
  -4.27519892452e-07
  -4.02377321105e-07
  -3.78713391816e-07
  -3.56441145209e-07
  -3.35478736014e-07
  -3.15749132305e-07
  -2.97179832427e-07
  -2.79702598568e-07
  -2.63253206002e-07
  -2.47771207080e-07
</dep>
<dep Pr2.It time>
  +9.99999999990e-05
  +9.41193095561e-05
  +8.85843410479e-05
  +8.33748729767e-05
  +7.84717633122e-05
  +7.38569228685e-05
  +6.95133753857e-05
  +6.54254911021e-05
  +6.15779004049e-05
  +5.79564858656e-05
  +5.45481786162e-05
  +5.13402599517e-05
  +4.83209240761e-05
  +4.54792431382e-05
  +4.28046425860e-05
  +4.02872888927e-05
  +3.79179969707e-05
  +3.56880572745e-05
  +3.35892457601e-05
  +3.16138522803e-05
  +2.97546322755e-05
  +2.80047535491e-05
  +2.63577857083e-05
  +2.48076765334e-05
  +2.33487297377e-05
  +2.19755840346e-05
  +2.06831934366e-05
  +1.94668087119e-05
  +1.83219599327e-05
  +1.72444400489e-05
  +1.62302894283e-05
  +1.52757813056e-05
  +1.43774080881e-05
  +1.35318684652e-05
  +1.27360552776e-05
  +1.19870440991e-05
  +1.12820824895e-05
  +1.06185798807e-05
  +9.99409805668e-06
  +9.40634219344e-06
  +8.85315242639e-06
  +8.33249591318e-06
  +7.84245936355e-06
  +7.38124200836e-06
  +6.94714898227e-06
  +6.53858509547e-06
  +6.15404897171e-06
  +5.79212753114e-06
  +5.45149079757e-06
  +5.13088701106e-06
  +4.82913802808e-06
  +4.54513499206e-06
  +4.27783425860e-06
  +4.02625356035e-06
  +3.78946839738e-06
  +3.56660863990e-06
  +3.35685533069e-06
  +3.15943767564e-06
  +2.97363021129e-06
  +2.79875013888e-06
  +2.63415481526e-06
  +2.47923939132e-06
  +2.33343458929e-06
  +2.19620461080e-06
  +2.06704516794e-06
  +1.94548163012e-06
  +1.83106727993e-06
  +1.72338167151e-06
  +1.62202908559e-06
  +1.52663707522e-06
  +1.43685509721e-06
  +1.35235322388e-06
  +1.27282093072e-06
  +1.19796595525e-06
  +1.12751322303e-06
  +1.06120383683e-06
  +9.98794125256e-07
  +9.40054747279e-07
  +8.84769849497e-07
  +8.32736272910e-07
  +7.83762806354e-07
  +7.37669483854e-07
  +6.94286923285e-07
  +6.53455703937e-07
  +6.15025780679e-07
  +5.78855932577e-07
  +5.44813243940e-07
  +5.12772615894e-07
  +4.82616306661e-07
  +4.54233498896e-07
  +4.27519892452e-07
  +4.02377321105e-07
  +3.78713391816e-07
  +3.56441145209e-07
  +3.35478736014e-07
  +3.15749132305e-07
  +2.97179832427e-07
  +2.79702598568e-07
  +2.63253206002e-07
  +2.47771207080e-07
</dep>
<dep _net1.Vt time>
  +9.99999999990e-11
  +5.88069044392e-01
  +1.14156589521e+00
  +1.66251270233e+00
  +2.15282366878e+00
  +2.61430771315e+00
  +3.04866246143e+00
  +3.45745088979e+00
  +3.84220995951e+00
  +4.20435141344e+00
  +4.54518213838e+00
  +4.86597400483e+00
  +5.16790759239e+00
  +5.45207568618e+00
  +5.71953574140e+00
  +5.97127111073e+00
  +6.20820030293e+00
  +6.43119427255e+00
  +6.64107542399e+00
  +6.83861477197e+00
  +7.02453677245e+00
  +7.19952464509e+00
  +7.36422142917e+00
  +7.51923234666e+00
  +7.66512702623e+00
  +7.80244159654e+00
  +7.93168065634e+00
  +8.05331912881e+00
  +8.16780400673e+00
  +8.27555599511e+00
  +8.37697105717e+00
  +8.47242186944e+00
  +8.56225919119e+00
  +8.64681315348e+00
  +8.72639447224e+00
  +8.80129559009e+00
  +8.87179175105e+00
  +8.93814201193e+00
  +9.00059019433e+00
  +9.05936578066e+00
  +9.11468475736e+00
  +9.16675040868e+00
  +9.21575406365e+00
  +9.26187579916e+00
  +9.30528510177e+00
  +9.34614149045e+00
  +9.38459510283e+00
  +9.42078724689e+00
  +9.45485092024e+00
  +9.48691129889e+00
  +9.51708619719e+00
  +9.54548650079e+00
  +9.57221657414e+00
  +9.59737464397e+00
  +9.62105316026e+00
  +9.64333913601e+00
  +9.66431446693e+00
  +9.68405623244e+00
  +9.70263697887e+00
  +9.72012498611e+00
  +9.73658451847e+00
  +9.75207606087e+00
  +9.76665654107e+00
  +9.78037953892e+00
  +9.79329548321e+00
  +9.80545183699e+00
  +9.81689327201e+00
  +9.82766183285e+00
  +9.83779709144e+00
  +9.84733629248e+00
  +9.85631449028e+00
  +9.86476467761e+00
  +9.87271790693e+00
  +9.88020340448e+00
  +9.88724867770e+00
  +9.89387961632e+00
  +9.90012058747e+00
  +9.90599452527e+00
  +9.91152301505e+00
  +9.91672637271e+00
  +9.92162371936e+00
  +9.92623305161e+00
  +9.93057130767e+00
  +9.93465442961e+00
  +9.93849742193e+00
  +9.94211440674e+00
  +9.94551867561e+00
  +9.94872273841e+00
  +9.95173836933e+00
  +9.95457665011e+00
  +9.95724801075e+00
  +9.95976226789e+00
  +9.96212866082e+00
  +9.96435588548e+00
  +9.96645212640e+00
  +9.96842508677e+00
  +9.97028201676e+00
  +9.97202974014e+00
  +9.97367467940e+00
  +9.97522287929e+00
</dep>
<dep _net2.Vt time>
  +9.99999999990e-11
  +5.88069044392e-01
  +1.14156589521e+00
  +1.66251270233e+00
  +2.15282366878e+00
  +2.61430771315e+00
  +3.04866246143e+00
  +3.45745088979e+00
  +3.84220995951e+00
  +4.20435141344e+00
  +4.54518213838e+00
  +4.86597400483e+00
  +5.16790759239e+00
  +5.45207568618e+00
  +5.71953574140e+00
  +5.97127111073e+00
  +6.20820030293e+00
  +6.43119427255e+00
  +6.64107542399e+00
  +6.83861477197e+00
  +7.02453677245e+00
  +7.19952464509e+00
  +7.36422142917e+00
  +7.51923234666e+00
  +7.66512702623e+00
  +7.80244159654e+00
  +7.93168065634e+00
  +8.05331912881e+00
  +8.16780400673e+00
  +8.27555599511e+00
  +8.37697105717e+00
  +8.47242186944e+00
  +8.56225919119e+00
  +8.64681315348e+00
  +8.72639447224e+00
  +8.80129559009e+00
  +8.87179175105e+00
  +8.93814201193e+00
  +9.00059019433e+00
  +9.05936578066e+00
  +9.11468475736e+00
  +9.16675040868e+00
  +9.21575406365e+00
  +9.26187579916e+00
  +9.30528510177e+00
  +9.34614149045e+00
  +9.38459510283e+00
  +9.42078724689e+00
  +9.45485092024e+00
  +9.48691129889e+00
  +9.51708619719e+00
  +9.54548650079e+00
  +9.57221657414e+00
  +9.59737464397e+00
  +9.62105316026e+00
  +9.64333913601e+00
  +9.66431446693e+00
  +9.68405623244e+00
  +9.70263697887e+00
  +9.72012498611e+00
  +9.73658451847e+00
  +9.75207606087e+00
  +9.76665654107e+00
  +9.78037953892e+00
  +9.79329548321e+00
  +9.80545183699e+00
  +9.81689327201e+00
  +9.82766183285e+00
  +9.83779709144e+00
  +9.84733629248e+00
  +9.85631449028e+00
  +9.86476467761e+00
  +9.87271790693e+00
  +9.88020340448e+00
  +9.88724867770e+00
  +9.89387961632e+00
  +9.90012058747e+00
  +9.90599452527e+00
  +9.91152301505e+00
  +9.91672637271e+00
  +9.92162371936e+00
  +9.92623305161e+00
  +9.93057130767e+00
  +9.93465442961e+00
  +9.93849742193e+00
  +9.94211440674e+00
  +9.94551867561e+00
  +9.94872273841e+00
  +9.95173836933e+00
  +9.95457665011e+00
  +9.95724801075e+00
  +9.95976226789e+00
  +9.96212866082e+00
  +9.96435588548e+00
  +9.96645212640e+00
  +9.96842508677e+00
  +9.97028201676e+00
  +9.97202974014e+00
  +9.97367467940e+00
  +9.97522287929e+00
</dep>
<dep _net0.Vt time>
  +1.00000000000e+01
  +1.00000000000e+01
  +1.00000000000e+01
  +1.00000000000e+01
  +1.00000000000e+01
  +1.00000000000e+01
  +1.00000000000e+01
  +1.00000000000e+01
  +1.00000000000e+01
  +1.00000000000e+01
  +1.00000000000e+01
  +1.00000000000e+01
  +1.00000000000e+01
  +1.00000000000e+01
  +1.00000000000e+01
  +1.00000000000e+01
  +1.00000000000e+01
  +1.00000000000e+01
  +1.00000000000e+01
  +1.00000000000e+01
  +1.00000000000e+01
  +1.00000000000e+01
  +1.00000000000e+01
  +1.00000000000e+01
  +1.00000000000e+01
  +1.00000000000e+01
  +1.00000000000e+01
  +1.00000000000e+01
  +1.00000000000e+01
  +1.00000000000e+01
  +1.00000000000e+01
  +1.00000000000e+01
  +1.00000000000e+01
  +1.00000000000e+01
  +1.00000000000e+01
  +1.00000000000e+01
  +1.00000000000e+01
  +1.00000000000e+01
  +1.00000000000e+01
  +1.00000000000e+01
  +1.00000000000e+01
  +1.00000000000e+01
  +1.00000000000e+01
  +1.00000000000e+01
  +1.00000000000e+01
  +1.00000000000e+01
  +1.00000000000e+01
  +1.00000000000e+01
  +1.00000000000e+01
  +1.00000000000e+01
  +1.00000000000e+01
  +1.00000000000e+01
  +1.00000000000e+01
  +1.00000000000e+01
  +1.00000000000e+01
  +1.00000000000e+01
  +1.00000000000e+01
  +1.00000000000e+01
  +1.00000000000e+01
  +1.00000000000e+01
  +1.00000000000e+01
  +1.00000000000e+01
  +1.00000000000e+01
  +1.00000000000e+01
  +1.00000000000e+01
  +1.00000000000e+01
  +1.00000000000e+01
  +1.00000000000e+01
  +1.00000000000e+01
  +1.00000000000e+01
  +1.00000000000e+01
  +1.00000000000e+01
  +1.00000000000e+01
  +1.00000000000e+01
  +1.00000000000e+01
  +1.00000000000e+01
  +1.00000000000e+01
  +1.00000000000e+01
  +1.00000000000e+01
  +1.00000000000e+01
  +1.00000000000e+01
  +1.00000000000e+01
  +1.00000000000e+01
  +1.00000000000e+01
  +1.00000000000e+01
  +1.00000000000e+01
  +1.00000000000e+01
  +1.00000000000e+01
  +1.00000000000e+01
  +1.00000000000e+01
  +1.00000000000e+01
  +1.00000000000e+01
  +1.00000000000e+01
  +1.00000000000e+01
  +1.00000000000e+01
  +1.00000000000e+01
  +1.00000000000e+01
  +1.00000000000e+01
  +1.00000000000e+01
  +1.00000000000e+01
</dep>
